SEGGER J-Link V4.56a Log File
DLL Compiled: Nov  5 2012 21:29:58
Logging started @ 2013-03-31 15:31

T09DC 000:000 JLINK_EMU_SelectByUSBSN(SerialNo = 28011884)  returns 0x00 (0003ms, 0003ms total)
T09DC 000:003 JLINK_OpenEx(...)
Firmware: J-Link ARM V8 compiled Nov 14 2012 22:34:52
Hardware: V8.00
S/N: 28011884
OEM: SAM-ICE
Feature(s): RDI, GDB  returns O.K. (0238ms, 0241ms total)
T09DC 000:242 JLINK_GetHWStatus(...)  returns 0x00 (0003ms, 0245ms total)
T09DC 000:245 JLINK_GetHWInfo(...)  returns 0x00 (0003ms, 0248ms total)
T09DC 000:248 JLINK_GetSpeedInfo() 48000000 Hz / n, n >= 4 (0001ms, 0249ms total)
T09DC 000:707 JLINK_GetFirmwareString(...) (0000ms, 0249ms total)
T09DC 000:717 JLINK_GetFirmwareString(...) (0001ms, 0250ms total)
T09DC 000:738 JLINK_ExecCommand("ProjectFile = Z:\Alden\Projects\proj64_ArduinoDue\g2\HW\jlink.config", ...)  returns 0x00 (0005ms, 0255ms total)
T09DC 000:743 JLINK_ExecCommand("device = AT91SAM3X8E", ...)
                JLINK_ExecCommand("map ram 0x20000000 - 0x2000FFFF", ...)  returns 0x00 (0000ms, 0000ms total)
                JLINK_AddMirrorAreaEx(Addr = 0x00000000, Size = 0x00000000) (0000ms, 0000ms total)
              Device "AT91SAM3X8E" selected (512 KB flash, 64 KB RAM).  returns 0x00 (0002ms, 0257ms total)
T09DC 000:745 JLINK_TIF_Select(JLINKARM_TIF_JTAG)  returns 0x00 (0001ms, 0258ms total)
T09DC 000:746 JLINK_Connect() >0x2F8 JTAG>TotalIRLen = 4, IRPrint = 0x01 >0x30 JTAG> >0x210 JTAG> >0x78 JTAG> >0x40 JTAG> >0x40 JTAG> >0x48 JTAG> >0x40 JTAG> >0x40 JTAG> >0x40 JTAG> >0x48 JTAG> >0x40 JTAG> >0x40 JTAG> >0x40 JTAG> >0x30 JTAG> >0x40 JTAG> >0x48 JTAG> >0x40 JTAG> >0x30 JTAG> >0x78 JTAG> >0x40 JTAG> >0x40 JTAG> >0x48 JTAG> >0x40 JTAG> >0x40 JTAG> >0x40 JTAG> >0x48 JTAG> >0x40 JTAG> >0x40 JTAG> >0x30 JTAG> >0x40 JTAG> >0x40 JTAG> >0x40 JTAG> >0x40 JTAG> >0x40 JTAG> >0x48 JTAG> >0x40 JTAG>
 >0x78 JTAG> >0x40 JTAG> >0x30 JTAG> >0x40 JTAG> >0x40 JTAG> >0x40 JTAG> >0x40 JTAG> >0x40 JTAG> >0x48 JTAG> >0x40 JTAG> >0x78 JTAG> >0x40 JTAG> >0x30 JTAG> >0x40 JTAG> >0x48 JTAG> >0x40 JTAG> >0x40 JTAG> >0x40 JTAG> >0x30 JTAG> >0x40 JTAG> >0x48 JTAG> >0x40 JTAG>Found Cortex-M3 r2p0, Little endian. >0x48 JTAG> >0x48 JTAG> >0x40 JTAG> >0x40 JTAG> >0x30 JTAG> >0x30 JTAG> >0x48 JTAG> >0x40 JTAG> >0x78 JTAG> >0x40 JTAG> >0x30 JTAG> >0x40 JTAG> >0x48 JTAG> >0x40 JTAG> >0x40 JTAG> >0x40 JTAG> >0x30 JTAG>
 >0x40 JTAG> >0x48 JTAG> >0x40 JTAG>TPIU fitted. >0x40 JTAG> >0x40 JTAG> >0x30 JTAG> >0x40 JTAG> >0x48 JTAG> >0x40 JTAG> >0x40 JTAG> >0x40 JTAG> >0x30 JTAG> >0x40 JTAG> >0x48 JTAG> >0x40 JTAG> >0x40 JTAG> >0x40 JTAG> >0x30 JTAG> >0x40 JTAG> >0x48 JTAG> >0x40 JTAG>FPUnit: 6 code (BP) slots and 2 literal slots >0x40 JTAG> >0x40 JTAG> >0x30 JTAG> >0x40 JTAG> >0x48 JTAG> >0x40 JTAG> >0x40 JTAG> >0x40 JTAG> >0x30 JTAG> >0x40 JTAG> >0x48 JTAG> >0x40 JTAG> >0x40 JTAG> >0x40 JTAG> >0x30 JTAG> >0x30 JTAG>
 >0x48 JTAG> >0x40 JTAG>  returns 0x00 (0288ms, 0546ms total)
T09DC 001:034 JLINK_SetSpeed(12000) (0004ms, 0550ms total)
T09DC 001:038 JLINK_ConfigJTAG(IRPre = 0, DRPre = 0) (0000ms, 0550ms total)
T09DC 001:038 JLINK_SelDevice(0) (0001ms, 0551ms total)
T09DC 001:039 JLINK_ReadMemU32(0x400E0A08, 0x0001 Items, ...) >0x338 JTAG>TotalIRLen = 4, IRPrint = 0x01 >0x30 JTAG> >0x210 JTAG> >0x78 JTAG> >0x40 JTAG> >0x40 JTAG> >0x48 JTAG> >0x40 JTAG> >0x40 JTAG> >0x40 JTAG> >0x48 JTAG> >0x40 JTAG> >0x40 JTAG> >0x40 JTAG> >0x30 JTAG> >0x40 JTAG> >0x48 JTAG> >0x40 JTAG> >0x30 JTAG> >0x78 JTAG> >0x40 JTAG> >0x40 JTAG> >0x48 JTAG> >0x40 JTAG> >0x40 JTAG> >0x40 JTAG> >0x48 JTAG> >0x40 JTAG> >0x40 JTAG> >0x30 JTAG> >0x40 JTAG> >0x40 JTAG> >0x40 JTAG> >0x40 JTAG>
 >0x40 JTAG> >0x48 JTAG> >0x40 JTAG> >0x78 JTAG> >0x40 JTAG> >0x30 JTAG> >0x40 JTAG> >0x40 JTAG> >0x40 JTAG> >0x40 JTAG> >0x40 JTAG> >0x48 JTAG> >0x40 JTAG> >0x78 JTAG> >0x40 JTAG> >0x30 JTAG> >0x40 JTAG> >0x48 JTAG> >0x40 JTAG> >0x40 JTAG> >0x40 JTAG> >0x30 JTAG> >0x40 JTAG> >0x48 JTAG> >0x40 JTAG>Found Cortex-M3 r2p0, Little endian. >0x48 JTAG> >0x48 JTAG> >0x40 JTAG> >0x40 JTAG> >0x30 JTAG> >0x30 JTAG> >0x48 JTAG> >0x40 JTAG> >0x78 JTAG> >0x40 JTAG> >0x30 JTAG> >0x40 JTAG> >0x48 JTAG> >0x40 JTAG>
 >0x40 JTAG> >0x40 JTAG> >0x30 JTAG> >0x40 JTAG> >0x48 JTAG> >0x40 JTAG>TPIU fitted. >0x40 JTAG> >0x40 JTAG> >0x30 JTAG> >0x40 JTAG> >0x48 JTAG> >0x40 JTAG> >0x40 JTAG> >0x40 JTAG> >0x30 JTAG> >0x40 JTAG> >0x48 JTAG> >0x40 JTAG> >0x40 JTAG> >0x40 JTAG> >0x30 JTAG> >0x40 JTAG> >0x48 JTAG> >0x40 JTAG>FPUnit: 6 code (BP) slots and 2 literal slots >0x40 JTAG> >0x40 JTAG> >0x30 JTAG> >0x40 JTAG> >0x48 JTAG> >0x40 JTAG> >0x40 JTAG> >0x40 JTAG> >0x30 JTAG> >0x40 JTAG> >0x48 JTAG> >0x40 JTAG> >0x40 JTAG>
 >0x40 JTAG> >0x30 JTAG> >0x30 JTAG> >0x48 JTAG> >0x40 JTAG> -- CPU is running -- CPU_ReadMem(4 bytes @ 0xFFFFEE40)  <0x00000000 @ addr 0xFFFFEE40> -- CPU is running -- CPU_ReadMem(4 bytes @ 0xFFFFF240)  <0x00000000 @ addr 0xFFFFF240> -- CPU is running -- CPU_ReadMem(4 bytes @ 0xFFF00000)  <0x00000000 @ addr 0xFFF00000> -- CPU is running -- CPU_ReadMem(4 bytes @ 0xFF000004)  <0x00000000 @ addr 0xFF000004> -- CPU is running -- CPU_ReadMem(4 bytes @ 0x00061100)  <0xFFFFFFFF @ addr 0x00061100>
 -- CPU is running -- CPU_ReadMem(4 bytes @ 0xFFFFF500)  <0x00000000 @ addr 0xFFFFF500> -- CPU is running -- CPU_ReadMem(4 bytes @ 0x400E0740)  <0x00000000 @ addr 0x400E0740> -- CPU is running -- CPU_ReadMem(4 bytes @ 0x400E0940)  <0x285E0A60 @ addr 0x400E0940> -- CPU is running -- CPU_ReadMem(4 bytes @ 0x400E0A08) -- Data:  01 00 00 00  returns 0x01 (0325ms, 0876ms total)
T09DC 001:364 JLINK_WriteU32(0x400E0A04, 0x5A000000) -- CPU is running -- CPU_WriteMem(4 bytes @ 0x400E0A04)  returns 0x00 (0006ms, 0882ms total)
T09DC 001:370 JLINK_ReadMemU32(0x400E0A08, 0x0001 Items, ...) -- CPU is running -- CPU_ReadMem(4 bytes @ 0x400E0A08) -- Data:  01 00 00 00  returns 0x01 (0004ms, 0886ms total)
T09DC 001:374 JLINK_ReadMemU32(0x400E0A0C, 0x0001 Items, ...) -- CPU is running -- CPU_ReadMem(4 bytes @ 0x400E0A0C) -- Data:  40 06 0F 00  returns 0x01 (0004ms, 0890ms total)
T09DC 001:378 JLINK_ReadMemU32(0x400E0A0C, 0x0001 Items, ...) -- CPU is running -- CPU_ReadMem(4 bytes @ 0x400E0A0C) -- Data:  00 00 04 00  returns 0x01 (0003ms, 0893ms total)
T09DC 001:381 JLINK_ReadMemU32(0x400E0A0C, 0x0001 Items, ...) -- CPU is running -- CPU_ReadMem(4 bytes @ 0x400E0A0C) -- Data:  00 01 00 00  returns 0x01 (0004ms, 0897ms total)
T09DC 001:385 JLINK_ReadMemU32(0x400E0A0C, 0x0001 Items, ...) -- CPU is running -- CPU_ReadMem(4 bytes @ 0x400E0A0C) -- Data:  01 00 00 00  returns 0x01 (0003ms, 0900ms total)
T09DC 001:388 JLINK_ReadMemU32(0x400E0A0C, 0x0001 Items, ...) -- CPU is running -- CPU_ReadMem(4 bytes @ 0x400E0A0C) -- Data:  00 00 04 00  returns 0x01 (0004ms, 0904ms total)
T09DC 001:392 JLINK_ReadMemU32(0x400E0A0C, 0x0001 Items, ...) -- CPU is running -- CPU_ReadMem(4 bytes @ 0x400E0A0C) -- Data:  10 00 00 00  returns 0x01 (0004ms, 0908ms total)
T09DC 001:396 JLINK_ReadMemU32(0x400E0A0C, 0x0001 Items, ...) -- CPU is running -- CPU_ReadMem(4 bytes @ 0x400E0A0C) -- Data:  00 40 00 00  returns 0x01 (0002ms, 0910ms total)
T09DC 001:398 JLINK_ReadMemU32(0x400E0A0C, 0x0001 Items, ...) -- CPU is running -- CPU_ReadMem(4 bytes @ 0x400E0A0C) -- Data:  00 40 00 00  returns 0x01 (0004ms, 0914ms total)
T09DC 001:402 JLINK_ReadMemU32(0x400E0A0C, 0x0001 Items, ...) -- CPU is running -- CPU_ReadMem(4 bytes @ 0x400E0A0C) -- Data:  00 40 00 00  returns 0x01 (0003ms, 0917ms total)
T09DC 001:406 JLINK_ReadMemU32(0x400E0A0C, 0x0001 Items, ...) -- CPU is running -- CPU_ReadMem(4 bytes @ 0x400E0A0C) -- Data:  00 40 00 00  returns 0x01 (0003ms, 0921ms total)
T09DC 001:409 JLINK_ReadMemU32(0x400E0A0C, 0x0001 Items, ...) -- CPU is running -- CPU_ReadMem(4 bytes @ 0x400E0A0C) -- Data:  00 40 00 00  returns 0x01 (0004ms, 0925ms total)
T09DC 001:413 JLINK_ReadMemU32(0x400E0A0C, 0x0001 Items, ...) -- CPU is running -- CPU_ReadMem(4 bytes @ 0x400E0A0C) -- Data:  00 40 00 00  returns 0x01 (0003ms, 0928ms total)
T09DC 001:417 JLINK_ReadMemU32(0x400E0A0C, 0x0001 Items, ...) -- CPU is running -- CPU_ReadMem(4 bytes @ 0x400E0A0C) -- Data:  00 40 00 00  returns 0x01 (0003ms, 0932ms total)
T09DC 001:420 JLINK_ReadMemU32(0x400E0A0C, 0x0001 Items, ...) -- CPU is running -- CPU_ReadMem(4 bytes @ 0x400E0A0C) -- Data:  00 40 00 00  returns 0x01 (0004ms, 0936ms total)
T09DC 001:424 JLINK_ReadMemU32(0x400E0A0C, 0x0001 Items, ...) -- CPU is running -- CPU_ReadMem(4 bytes @ 0x400E0A0C) -- Data:  00 40 00 00  returns 0x01 (0003ms, 0939ms total)
T09DC 001:427 JLINK_ReadMemU32(0x400E0A0C, 0x0001 Items, ...) -- CPU is running -- CPU_ReadMem(4 bytes @ 0x400E0A0C) -- Data:  00 40 00 00  returns 0x01 (0004ms, 0943ms total)
T09DC 001:431 JLINK_ReadMemU32(0x400E0A0C, 0x0001 Items, ...) -- CPU is running -- CPU_ReadMem(4 bytes @ 0x400E0A0C) -- Data:  00 40 00 00  returns 0x01 (0004ms, 0947ms total)
T09DC 001:435 JLINK_ReadMemU32(0x400E0A0C, 0x0001 Items, ...) -- CPU is running -- CPU_ReadMem(4 bytes @ 0x400E0A0C) -- Data:  00 40 00 00  returns 0x01 (0003ms, 0950ms total)
T09DC 001:438 JLINK_ReadMemU32(0x400E0A0C, 0x0001 Items, ...) -- CPU is running -- CPU_ReadMem(4 bytes @ 0x400E0A0C) -- Data:  00 40 00 00  returns 0x01 (0003ms, 0953ms total)
T09DC 001:441 JLINK_ReadMemU32(0x400E0A0C, 0x0001 Items, ...) -- CPU is running -- CPU_ReadMem(4 bytes @ 0x400E0A0C) -- Data:  00 40 00 00  returns 0x01 (0003ms, 0956ms total)
T09DC 001:444 JLINK_ReadMemU32(0x400E0A0C, 0x0001 Items, ...) -- CPU is running -- CPU_ReadMem(4 bytes @ 0x400E0A0C) -- Data:  00 40 00 00  returns 0x01 (0004ms, 0960ms total)
T09DC 001:448 JLINK_ReadMemU32(0x400E0A0C, 0x0001 Items, ...) -- CPU is running -- CPU_ReadMem(4 bytes @ 0x400E0A0C) -- Data:  00 40 00 00  returns 0x01 (0004ms, 0964ms total)
T09DC 001:452 JLINK_SetResetType(JLINKARM_RESET_TYPE_NORMAL)  returns JLINKARM_RESET_TYPE_NORMAL (0000ms, 0964ms total)
T09DC 001:452 JLINK_Reset() -- CPU_ReadMem(16 bytes @ 0x20000000) -- CPU_WriteMem(16 bytes @ 0x20000000) -- CPU_ReadMem(4 bytes @ 0xE000EDFC) -- CPU_WriteMem(4 bytes @ 0xE000EDFC) -- CPU_WriteMem(4 bytes @ 0xE000ED0C) -- CPU_ReadMem(4 bytes @ 0xE000EDF0) -- CPU_ReadMem(4 bytes @ 0xE000EDF0) -- CPU_WriteMem(4 bytes @ 0xE000EDFC) -- CPU_WriteMem(16 bytes @ 0x20000000) -- CPU_WriteMem(4 bytes @ 0xE0002000) (0061ms, 1025ms total)
T09DC 001:513 JLINK_Halt()  returns 0x00 (0001ms, 1026ms total)
T09DC 001:514 JLINK_JTAG_GetDeviceID(DeviceIndex = 0)  returns 0x4BA00477 (0000ms, 1026ms total)
T09DC 001:515 JLINK_ReadMem (0x400E0940, 0x0004 Bytes, ...) -- CPU_ReadMem(4 bytes @ 0x400E0940) -- Data:  60 0A 5E 28  returns 0x00 (0003ms, 1029ms total)
T09DC 001:525 JLINK_ReadMem (0x00086E68, 0x0098 Bytes, ...) -- CPU_ReadMem(192 bytes @ 0x00086E40) -- Updating DA cache (192 bytes @ 0x00086E40) -- Read from DA cache (152 bytes @ 0x00086E68) -- Data:  72 B6 09 4A 93 68 13 F0 01 0F 07 4B FA D0 07 4A ...  returns 0x00 (0006ms, 1035ms total)
T09DC 001:531 JLINK_BeginDownload(Flags = 0x00) (0000ms, 1035ms total)
T09DC 001:531 JLINK_WriteMem(0x00080000, 0x6F00 Bytes, ...) -- Data:  68 32 07 20 7D 11 08 00 A5 01 08 00 A5 01 08 00 ...  returns 0x6F00 (0000ms, 1035ms total)
T09DC 001:532 JLINK_EndDownload() -- -------------------------------------- -- Start of determining dirty areas -- End of determining dirty areas -- Start of preparing flash programming
                JLINK_GetDeviceFamily()  returns 3 (0000ms, 0000ms total)
               -- Calculating RAM usage -- RAM usage = 9272 Bytes -- Preserving registers
                JLINK_ReadReg(XPSR)  returns 0x01000000 (0000ms, 0000ms total)
                JLINK_ReadReg(CFBP)  returns 0x00000000 (0000ms, 0000ms total)
                JLINK_ReadReg(R0)  returns 0x400E1A00 (0001ms, 0001ms total)
                JLINK_ReadReg(R1)  returns 0x00000000 (0000ms, 0001ms total)
                JLINK_ReadReg(R2)  returns 0xA5000004 (0000ms, 0001ms total)
                JLINK_ReadReg(R3)  returns 0x400E1200 (0001ms, 0002ms total)
                JLINK_ReadReg(R4)  returns 0x00081599 (0000ms, 0002ms total)
                JLINK_ReadReg(R5)  returns 0x000B1009 (0000ms, 0002ms total)
                JLINK_ReadReg(R6)  returns 0x000801E1 (0001ms, 0003ms total)
                JLINK_ReadReg(R7)  returns 0x30841001 (0000ms, 0003ms total)
                JLINK_ReadReg(R8)  returns 0x808194C2 (0000ms, 0003ms total)
                JLINK_ReadReg(R9)  returns 0xA3225108 (0001ms, 0004ms total)
                JLINK_ReadReg(R10)  returns 0xD0B8D021 (0000ms, 0004ms total)
                JLINK_ReadReg(R11)  returns 0xD8C26C39 (0000ms, 0004ms total)
                JLINK_ReadReg(R12)  returns 0x0B81690F (0001ms, 0005ms total)
                JLINK_ReadReg(R14)  returns 0xFFFFFFFF (0000ms, 0005ms total)
                JLINK_ReadReg(R15)  returns 0x0008117C (0000ms, 0005ms total)
                JLINK_ReadReg(MSP)  returns 0x20073268 (0001ms, 0006ms total)
                JLINK_ReadReg(PSP)  returns 0x2C070024 (0000ms, 0006ms total)
               -- Preparing memory -- Determining CPU clock frequency
                JLINK_WA_AddRange(Addr = 0x20000438, NumBytes = 0x40) -- CPU_ReadMem(64 bytes @ 0x20000438)  returns 0x00 (0004ms, 0010ms total)
                JLINK_MeasureCPUSpeedEx(RAMAddr = 0x20000438) -- CPU_WriteMem(6 bytes @ 0x20000438) -- CPU_ReadMem(6 bytes @ 0x20000438) -- CPU_WriteMem(4 bytes @ 0xE0002008) -- CPU_WriteMem(4 bytes @ 0xE000200C) -- CPU_WriteMem(4 bytes @ 0xE0002010) -- CPU_WriteMem(4 bytes @ 0xE0002014) -- CPU_WriteMem(4 bytes @ 0xE0002018) -- CPU_WriteMem(4 bytes @ 0xE000201C) -- CPU_WriteMem(4 bytes @ 0xE0002008) -- CPU_WriteMem(4 bytes @ 0xE000200C) -- CPU_WriteMem(4 bytes @ 0xE0002010)
 -- CPU_WriteMem(4 bytes @ 0xE0002014) -- CPU_WriteMem(4 bytes @ 0xE0002018) -- CPU_WriteMem(4 bytes @ 0xE000201C) -- ClockFreq: 3986550 Hz  returns 0x3CD476 (0089ms, 0099ms total)
               -- CPU clock frequency: 3986 kHz -- CPU frequency = 3986 kHz -- Preparing target
                JLINK_ReadMemU32(0x400E0630, 0x0001 Items, ...) -- CPU_ReadMem(4 bytes @ 0x400E0630) -- Data:  01 00 00 00  returns 0x01 (0002ms, 0101ms total)
                JLINK_WriteMemHW(0x400E0A04, 0x0004 Bytes, ...) -- Data:  0D 01 00 5A -- CPU_WriteMem(4 bytes @ 0x400E0A04)  returns 0x04 (0004ms, 0105ms total)
                JLINK_ReadMemHW(0x400E0A08, 0x0004 Bytes, ...) -- CPU_ReadMem(4 bytes @ 0x400E0A08) -- Data:  01 00 00 00  returns 0x00 (0004ms, 0109ms total)
                JLINK_ReadMemHW(0x400E0A0C, 0x0004 Bytes, ...) -- CPU_ReadMem(4 bytes @ 0x400E0A0C) -- Data:  02 00 00 00  returns 0x00 (0003ms, 0112ms total)
               -- Preserving target memory used for RAMCode and buffer
                JLINK_WA_AddRange(Addr = 0x20000000, NumBytes = 0x2438) -- CPU_ReadMem(1080 bytes @ 0x20000000) -- CPU_ReadMem(8128 bytes @ 0x20000478)  returns 0x00 (0027ms, 0139ms total)
                JLINK_GetSpeedInfo() 48000000 Hz / n, n >= 4 (0000ms, 0139ms total)
                JLINK_GetSpeed()  returns 0x2EE0 (0000ms, 0139ms total)
               -- Downloading RAMCode
                JLINK_WriteMemEx(0x20000000, 0x0358 Bytes, ..., AccessWidth = 0) -- Data:  00 BE FE E7 81 E0 9A E0 67 E0 40 E0 9B E0 9F E0 ... -- CPU_WriteMem(856 bytes @ 0x20000000)  returns 0x358 (0008ms, 0147ms total)
                JLINK_ReadMemEx(0x20000000, 0x0358 Bytes, ..., AccessWidth = 0) -- CPU_ReadMem(856 bytes @ 0x20000000) -- Data:  00 BE FE E7 81 E0 9A E0 67 E0 40 E0 9B E0 9F E0 ...  returns 0x358 (0006ms, 0153ms total)
               -- Checking target RAM
                JLINK_WriteReg(R1, 0x20000438)  returns 0x00 (0000ms, 0153ms total)
                JLINK_WriteReg(R2, 0x00002000)  returns 0x00 (0000ms, 0153ms total)
                JLINK_WriteReg(XPSR, 0x01000000)  returns 0x00 (0000ms, 0153ms total)
                JLINK_WriteReg(R13, 0x20000418)  returns 0x00 (0000ms, 0153ms total)
                JLINK_WriteReg(R15, 0x2000000A)  returns 0x00 (0001ms, 0154ms total)
                JLINK_GoIntDis() (0007ms, 0161ms total)
                JLINK_IsHalted()  returns FALSE (0003ms, 0164ms total)
                JLINK_IsHalted()  returns FALSE (0003ms, 0167ms total)
                JLINK_IsHalted()  returns FALSE (0004ms, 0171ms total)
                JLINK_IsHalted()  returns FALSE (0003ms, 0174ms total)
                JLINK_IsHalted()  returns TRUE (0008ms, 0182ms total)
                JLINK_ReadReg(R15)  returns 0x20000000 (0000ms, 0182ms total)
                JLINK_ReadReg(R0)  returns 0x00002000 (0000ms, 0182ms total)
               -- Preparing RAMCode
                JLINK_WriteReg(XPSR, 0x01000000)  returns 0x00 (0001ms, 0183ms total)
                JLINK_WriteReg(R13, 0x20000418)  returns 0x00 (0000ms, 0183ms total)
                JLINK_WriteReg(R15, 0x2000000C)  returns 0x00 (0000ms, 0183ms total)
                JLINK_GoIntDis() (0006ms, 0190ms total)
                JLINK_IsHalted()  returns TRUE (0006ms, 0196ms total)
                JLINK_ReadReg(R15)  returns 0x20000000 (0000ms, 0196ms total)
               -- End of preparing flash programmingCPU is running at low speed (3986 kHz). -- CPU is running at 3986 kHz. -- Start of comparing flash -- Read back was estimated as fastest method -- Comparing range 0x80000 - 0x86EFF (111 Sectors, 27 KB), using multi-block CRC calculation -- CPU_ReadMem(256 bytes @ 0x00080000) -- CPU_ReadMem(256 bytes @ 0x00080100) -- CPU_ReadMem(256 bytes @ 0x00080200) -- CPU_ReadMem(256 bytes @ 0x00080300) -- CPU_ReadMem(256 bytes @ 0x00080400)
 -- CPU_ReadMem(256 bytes @ 0x00080500) -- CPU_ReadMem(256 bytes @ 0x00080600) -- CPU_ReadMem(256 bytes @ 0x00080700) -- CPU_ReadMem(256 bytes @ 0x00080800) -- CPU_ReadMem(256 bytes @ 0x00080900) -- CPU_ReadMem(256 bytes @ 0x00080A00) -- CPU_ReadMem(256 bytes @ 0x00080B00) -- CPU_ReadMem(256 bytes @ 0x00080C00) -- CPU_ReadMem(256 bytes @ 0x00080D00) -- CPU_ReadMem(256 bytes @ 0x00080E00) -- CPU_ReadMem(256 bytes @ 0x00080F00) -- CPU_ReadMem(256 bytes @ 0x00081000) -- CPU_ReadMem(256 bytes @ 0x00081100)
 -- CPU_ReadMem(256 bytes @ 0x00081200) -- CPU_ReadMem(256 bytes @ 0x00081300) -- CPU_ReadMem(256 bytes @ 0x00081400) -- CPU_ReadMem(256 bytes @ 0x00081500) -- CPU_ReadMem(256 bytes @ 0x00081600) -- CPU_ReadMem(256 bytes @ 0x00081700) -- CPU_ReadMem(256 bytes @ 0x00081800) -- CPU_ReadMem(256 bytes @ 0x00081900) -- CPU_ReadMem(256 bytes @ 0x00081A00) -- CPU_ReadMem(256 bytes @ 0x00081B00) -- CPU_ReadMem(256 bytes @ 0x00081C00) -- CPU_ReadMem(256 bytes @ 0x00081D00) -- CPU_ReadMem(256 bytes @ 0x00081E00)
 -- CPU_ReadMem(256 bytes @ 0x00081F00) -- CPU_ReadMem(256 bytes @ 0x00082000) -- CPU_ReadMem(256 bytes @ 0x00082100) -- CPU_ReadMem(256 bytes @ 0x00082200) -- CPU_ReadMem(256 bytes @ 0x00082300) -- CPU_ReadMem(256 bytes @ 0x00082400) -- CPU_ReadMem(256 bytes @ 0x00082500) -- CPU_ReadMem(256 bytes @ 0x00082600) -- CPU_ReadMem(256 bytes @ 0x00082700) -- CPU_ReadMem(256 bytes @ 0x00082800) -- CPU_ReadMem(256 bytes @ 0x00082900) -- CPU_ReadMem(256 bytes @ 0x00082A00) -- CPU_ReadMem(256 bytes @ 0x00082B00)
 -- CPU_ReadMem(256 bytes @ 0x00082C00) -- CPU_ReadMem(256 bytes @ 0x00082D00) -- CPU_ReadMem(256 bytes @ 0x00082E00) -- CPU_ReadMem(256 bytes @ 0x00082F00) -- CPU_ReadMem(256 bytes @ 0x00083000) -- CPU_ReadMem(256 bytes @ 0x00083100) -- CPU_ReadMem(256 bytes @ 0x00083200) -- CPU_ReadMem(256 bytes @ 0x00083300) -- CPU_ReadMem(256 bytes @ 0x00083400) -- CPU_ReadMem(256 bytes @ 0x00083500) -- CPU_ReadMem(256 bytes @ 0x00083600) -- CPU_ReadMem(256 bytes @ 0x00083700) -- CPU_ReadMem(256 bytes @ 0x00083800)
 -- CPU_ReadMem(256 bytes @ 0x00083900) -- CPU_ReadMem(256 bytes @ 0x00083A00) -- CPU_ReadMem(256 bytes @ 0x00083B00) -- CPU_ReadMem(256 bytes @ 0x00083C00) -- CPU_ReadMem(256 bytes @ 0x00083D00) -- CPU_ReadMem(256 bytes @ 0x00083E00) -- CPU_ReadMem(256 bytes @ 0x00083F00) -- CPU_ReadMem(256 bytes @ 0x00084000) -- CPU_ReadMem(256 bytes @ 0x00084100) -- CPU_ReadMem(256 bytes @ 0x00084200) -- CPU_ReadMem(256 bytes @ 0x00084300) -- CPU_ReadMem(256 bytes @ 0x00084400) -- CPU_ReadMem(256 bytes @ 0x00084500)
 -- CPU_ReadMem(256 bytes @ 0x00084600) -- CPU_ReadMem(256 bytes @ 0x00084700) -- CPU_ReadMem(256 bytes @ 0x00084800) -- CPU_ReadMem(256 bytes @ 0x00084900) -- CPU_ReadMem(256 bytes @ 0x00084A00) -- CPU_ReadMem(256 bytes @ 0x00084B00) -- CPU_ReadMem(256 bytes @ 0x00084C00) -- CPU_ReadMem(256 bytes @ 0x00084D00) -- CPU_ReadMem(256 bytes @ 0x00084E00) -- CPU_ReadMem(256 bytes @ 0x00084F00) -- CPU_ReadMem(256 bytes @ 0x00085000) -- CPU_ReadMem(256 bytes @ 0x00085100) -- CPU_ReadMem(256 bytes @ 0x00085200)
 -- CPU_ReadMem(256 bytes @ 0x00085300) -- CPU_ReadMem(256 bytes @ 0x00085400) -- CPU_ReadMem(256 bytes @ 0x00085500) -- CPU_ReadMem(256 bytes @ 0x00085600) -- CPU_ReadMem(256 bytes @ 0x00085700) -- CPU_ReadMem(256 bytes @ 0x00085800) -- CPU_ReadMem(256 bytes @ 0x00085900) -- CPU_ReadMem(256 bytes @ 0x00085A00) -- CPU_ReadMem(256 bytes @ 0x00085B00) -- CPU_ReadMem(256 bytes @ 0x00085C00) -- CPU_ReadMem(256 bytes @ 0x00085D00) -- CPU_ReadMem(256 bytes @ 0x00085E00) -- CPU_ReadMem(256 bytes @ 0x00085F00)
 -- CPU_ReadMem(256 bytes @ 0x00086000) -- CPU_ReadMem(256 bytes @ 0x00086100) -- CPU_ReadMem(256 bytes @ 0x00086200) -- CPU_ReadMem(256 bytes @ 0x00086300) -- CPU_ReadMem(256 bytes @ 0x00086400) -- CPU_ReadMem(256 bytes @ 0x00086500) -- CPU_ReadMem(256 bytes @ 0x00086600) -- CPU_ReadMem(256 bytes @ 0x00086700) -- CPU_ReadMem(256 bytes @ 0x00086800) -- CPU_ReadMem(256 bytes @ 0x00086900) -- CPU_ReadMem(256 bytes @ 0x00086A00) -- CPU_ReadMem(256 bytes @ 0x00086B00) -- CPU_ReadMem(256 bytes @ 0x00086C00)
 -- CPU_ReadMem(256 bytes @ 0x00086D00) -- CPU_ReadMem(256 bytes @ 0x00086E00) -- All CRCs match -- End of comparing flash -- Start of flash programming -- End of flash programming -- Flash programming performed for 0 ranges (0 bytes) -- Flash programming was not necessary -- Start of verifying flash -- End of verifying flash -- Start of restoring
                JLINK_GetDeviceFamily()  returns 3 (0000ms, 0197ms total)
               -- Restore RAMCode
                JLINK_WriteReg(XPSR, 0x01000000)  returns 0x00 (0001ms, 0198ms total)
                JLINK_WriteReg(R13, 0x20000418)  returns 0x00 (0000ms, 0198ms total)
                JLINK_WriteReg(R15, 0x2000000E)  returns 0x00 (0000ms, 0198ms total)
                JLINK_GoIntDis() (0007ms, 0205ms total)
                JLINK_IsHalted()  returns TRUE (0008ms, 0213ms total)
                JLINK_ReadReg(R15)  returns 0x20000000 (0000ms, 0213ms total)
               -- Restore content of target memory
                JLINK_WA_Restore() -- CPU_WriteMem(9272 bytes @ 0x20000000)  returns 0x00 (0038ms, 0251ms total)
               -- Restore target -- Restore memory -- Restore content of registers
                JLINK_WriteReg(XPSR, 0x01000000)  returns 0x00 (0000ms, 0251ms total)
                JLINK_WriteReg(CFBP, 0x00000000)  returns 0x00 (0000ms, 0251ms total)
                JLINK_WriteReg(R0, 0x400E1A00)  returns 0x00 (0001ms, 0252ms total)
                JLINK_WriteReg(R1, 0x00000000)  returns 0x00 (0000ms, 0252ms total)
                JLINK_WriteReg(R2, 0xA5000004)  returns 0x00 (0000ms, 0252ms total)
                JLINK_WriteReg(R3, 0x400E1200)  returns 0x00 (0001ms, 0253ms total)
                JLINK_WriteReg(R4, 0x00081599)  returns 0x00 (0000ms, 0253ms total)
                JLINK_WriteReg(R5, 0x000B1009)  returns 0x00 (0000ms, 0253ms total)
                JLINK_WriteReg(R6, 0x000801E1)  returns 0x00 (0000ms, 0253ms total)
                JLINK_WriteReg(R7, 0x30841001)  returns 0x00 (0000ms, 0254ms total)
                JLINK_WriteReg(R8, 0x808194C2)  returns 0x00 (0000ms, 0254ms total)
                JLINK_WriteReg(R9, 0xA3225108)  returns 0x00 (0000ms, 0254ms total)
                JLINK_WriteReg(R10, 0xD0B8D021)  returns 0x00 (0000ms, 0255ms total)
                JLINK_WriteReg(R11, 0xD8C26C39)  returns 0x00 (0000ms, 0255ms total)
                JLINK_WriteReg(R12, 0x0B81690F)  returns 0x00 (0001ms, 0256ms total)
                JLINK_WriteReg(R14, 0xFFFFFFFF)  returns 0x00 (0000ms, 0256ms total)
                JLINK_WriteReg(R15, 0x0008117C)  returns 0x00 (0000ms, 0256ms total)
                JLINK_WriteReg(MSP, 0x20073268)  returns 0x00 (0001ms, 0257ms total)
                JLINK_WriteReg(PSP, 0x2C070024)  returns 0x00 (0000ms, 0257ms total)
               -- End of restoring -- Total time needed: 0.723s (Prepare: 0.199s, Compare: 0.461s, Program: 0.000s, Verify: 0.000s, Restore: 0.061s)  returns 0x00 (0730ms, 1766ms total)
T09DC 002:262 JLINK_ReadMem (0x00086E00, 0x0068 Bytes, ...) -- Read from flash cache (104 bytes @ 0x00086E00) -- Data:  1C E5 FF 7F 01 00 00 00 A0 E5 FF 7F B0 AF 0A 80 ...  returns 0x00 (0001ms, 1767ms total)
T09DC 002:263 JLINK_ReadMem (0x000878E0, 0x0020 Bytes, ...) -- CPU_ReadMem(64 bytes @ 0x000878C0) -- Updating DA cache (64 bytes @ 0x000878C0) -- Read from DA cache (32 bytes @ 0x000878E0) -- Data:  70 0F 00 F0 E3 80 BC F1 71 0F 40 F0 D5 81 60 E0 ...  returns 0x00 (0004ms, 1771ms total)
T09DC 002:267 JLINK_BeginDownload(Flags = 0x00) (0000ms, 1771ms total)
T09DC 002:267 JLINK_WriteMem(0x00086E00, 0x0B00 Bytes, ...) -- Data:  1C E5 FF 7F 01 00 00 00 A0 E5 FF 7F B0 AF 0A 80 ...  returns 0xB00 (0001ms, 1772ms total)
T09DC 002:268 JLINK_EndDownload() -- -------------------------------------- -- Start of determining dirty areas -- End of determining dirty areas -- Start of preparing flash programming
                JLINK_GetDeviceFamily()  returns 3 (0000ms, 0000ms total)
               -- Calculating RAM usage -- RAM usage = 9272 Bytes -- Preserving registers
                JLINK_ReadReg(XPSR)  returns 0x01000000 (0001ms, 0001ms total)
                JLINK_ReadReg(CFBP)  returns 0x00000000 (0000ms, 0001ms total)
                JLINK_ReadReg(R0)  returns 0x400E1A00 (0001ms, 0002ms total)
                JLINK_ReadReg(R1)  returns 0x00000000 (0000ms, 0002ms total)
                JLINK_ReadReg(R2)  returns 0xA5000004 (0000ms, 0002ms total)
                JLINK_ReadReg(R3)  returns 0x400E1200 (0001ms, 0003ms total)
                JLINK_ReadReg(R4)  returns 0x00081599 (0000ms, 0003ms total)
                JLINK_ReadReg(R5)  returns 0x000B1009 (0000ms, 0003ms total)
                JLINK_ReadReg(R6)  returns 0x000801E1 (0001ms, 0004ms total)
                JLINK_ReadReg(R7)  returns 0x30841001 (0000ms, 0004ms total)
                JLINK_ReadReg(R8)  returns 0x808194C2 (0000ms, 0004ms total)
                JLINK_ReadReg(R9)  returns 0xA3225108 (0000ms, 0004ms total)
                JLINK_ReadReg(R10)  returns 0xD0B8D021 (0000ms, 0004ms total)
                JLINK_ReadReg(R11)  returns 0xD8C26C39 (0000ms, 0004ms total)
                JLINK_ReadReg(R12)  returns 0x0B81690F (0001ms, 0005ms total)
                JLINK_ReadReg(R14)  returns 0xFFFFFFFF (0000ms, 0005ms total)
                JLINK_ReadReg(R15)  returns 0x0008117C (0000ms, 0005ms total)
                JLINK_ReadReg(MSP)  returns 0x20073268 (0001ms, 0006ms total)
                JLINK_ReadReg(PSP)  returns 0x2C070024 (0000ms, 0006ms total)
               -- Preparing memory -- Determining CPU clock frequency
                JLINK_WA_AddRange(Addr = 0x20000438, NumBytes = 0x40) -- CPU_ReadMem(64 bytes @ 0x20000438)  returns 0x00 (0004ms, 0010ms total)
                JLINK_MeasureCPUSpeedEx(RAMAddr = 0x20000438) -- CPU_WriteMem(6 bytes @ 0x20000438) -- CPU_ReadMem(6 bytes @ 0x20000438) -- CPU_WriteMem(4 bytes @ 0xE0002008) -- CPU_WriteMem(4 bytes @ 0xE000200C) -- CPU_WriteMem(4 bytes @ 0xE0002010) -- CPU_WriteMem(4 bytes @ 0xE0002014) -- CPU_WriteMem(4 bytes @ 0xE0002018) -- CPU_WriteMem(4 bytes @ 0xE000201C) -- ClockFreq: 3987000 Hz  returns 0x3CD638 (0068ms, 0079ms total)
               -- CPU clock frequency: 3987 kHz -- CPU frequency = 3987 kHz -- Preparing target
                JLINK_ReadMemU32(0x400E0630, 0x0001 Items, ...) -- CPU_ReadMem(4 bytes @ 0x400E0630) -- Data:  01 00 00 00  returns 0x01 (0002ms, 0081ms total)
                JLINK_WriteMemHW(0x400E0A04, 0x0004 Bytes, ...) -- Data:  0D 01 00 5A -- CPU_WriteMem(4 bytes @ 0x400E0A04)  returns 0x04 (0004ms, 0085ms total)
                JLINK_ReadMemHW(0x400E0A08, 0x0004 Bytes, ...) -- CPU_ReadMem(4 bytes @ 0x400E0A08) -- Data:  01 00 00 00  returns 0x00 (0003ms, 0088ms total)
                JLINK_ReadMemHW(0x400E0A0C, 0x0004 Bytes, ...) -- CPU_ReadMem(4 bytes @ 0x400E0A0C) -- Data:  02 00 00 00  returns 0x00 (0003ms, 0091ms total)
               -- Preserving target memory used for RAMCode and buffer
                JLINK_WA_AddRange(Addr = 0x20000000, NumBytes = 0x2438) -- CPU_ReadMem(1080 bytes @ 0x20000000) -- CPU_ReadMem(8128 bytes @ 0x20000478)  returns 0x00 (0028ms, 0119ms total)
                JLINK_GetSpeedInfo() 48000000 Hz / n, n >= 4 (0000ms, 0119ms total)
                JLINK_GetSpeed()  returns 0x2EE0 (0001ms, 0120ms total)
               -- Downloading RAMCode
                JLINK_WriteMemEx(0x20000000, 0x0358 Bytes, ..., AccessWidth = 0) -- Data:  00 BE FE E7 81 E0 9A E0 67 E0 40 E0 9B E0 9F E0 ... -- CPU_WriteMem(856 bytes @ 0x20000000)  returns 0x358 (0010ms, 0130ms total)
                JLINK_ReadMemEx(0x20000000, 0x0358 Bytes, ..., AccessWidth = 0) -- CPU_ReadMem(856 bytes @ 0x20000000) -- Data:  00 BE FE E7 81 E0 9A E0 67 E0 40 E0 9B E0 9F E0 ...  returns 0x358 (0005ms, 0135ms total)
               -- Preparing RAMCode
                JLINK_WriteReg(XPSR, 0x01000000)  returns 0x00 (0001ms, 0136ms total)
                JLINK_WriteReg(R13, 0x20000418)  returns 0x00 (0000ms, 0136ms total)
                JLINK_WriteReg(R15, 0x2000000C)  returns 0x00 (0000ms, 0136ms total)
                JLINK_GoIntDis() (0007ms, 0143ms total)
                JLINK_IsHalted()  returns TRUE (0006ms, 0149ms total)
                JLINK_ReadReg(R15)  returns 0x20000000 (0001ms, 0150ms total)
               -- End of preparing flash programmingCPU is running at low speed (3987 kHz). -- CPU is running at 3987 kHz. -- Start of comparing flash -- Read back was estimated as fastest method -- Comparing range 0x80000 - 0x878FF (121 Sectors, 30 KB), using multi-block CRC calculation -- CPU_ReadMem(256 bytes @ 0x00080000) -- CPU_ReadMem(256 bytes @ 0x00080100) -- CPU_ReadMem(256 bytes @ 0x00080200) -- CPU_ReadMem(256 bytes @ 0x00080300) -- CPU_ReadMem(256 bytes @ 0x00080400)
 -- CPU_ReadMem(256 bytes @ 0x00080500) -- CPU_ReadMem(256 bytes @ 0x00080600) -- CPU_ReadMem(256 bytes @ 0x00080700) -- CPU_ReadMem(256 bytes @ 0x00080800) -- CPU_ReadMem(256 bytes @ 0x00080900) -- CPU_ReadMem(256 bytes @ 0x00080A00) -- CPU_ReadMem(256 bytes @ 0x00080B00) -- CPU_ReadMem(256 bytes @ 0x00080C00) -- CPU_ReadMem(256 bytes @ 0x00080D00) -- CPU_ReadMem(256 bytes @ 0x00080E00) -- CPU_ReadMem(256 bytes @ 0x00080F00) -- CPU_ReadMem(256 bytes @ 0x00081000) -- CPU_ReadMem(256 bytes @ 0x00081100)
 -- CPU_ReadMem(256 bytes @ 0x00081200) -- CPU_ReadMem(256 bytes @ 0x00081300) -- CPU_ReadMem(256 bytes @ 0x00081400) -- CPU_ReadMem(256 bytes @ 0x00081500) -- CPU_ReadMem(256 bytes @ 0x00081600) -- CPU_ReadMem(256 bytes @ 0x00081700) -- CPU_ReadMem(256 bytes @ 0x00081800) -- CPU_ReadMem(256 bytes @ 0x00081900) -- CPU_ReadMem(256 bytes @ 0x00081A00) -- CPU_ReadMem(256 bytes @ 0x00081B00) -- CPU_ReadMem(256 bytes @ 0x00081C00) -- CPU_ReadMem(256 bytes @ 0x00081D00) -- CPU_ReadMem(256 bytes @ 0x00081E00)
 -- CPU_ReadMem(256 bytes @ 0x00081F00) -- CPU_ReadMem(256 bytes @ 0x00082000) -- CPU_ReadMem(256 bytes @ 0x00082100) -- CPU_ReadMem(256 bytes @ 0x00082200) -- CPU_ReadMem(256 bytes @ 0x00082300) -- CPU_ReadMem(256 bytes @ 0x00082400) -- CPU_ReadMem(256 bytes @ 0x00082500) -- CPU_ReadMem(256 bytes @ 0x00082600) -- CPU_ReadMem(256 bytes @ 0x00082700) -- CPU_ReadMem(256 bytes @ 0x00082800) -- CPU_ReadMem(256 bytes @ 0x00082900) -- CPU_ReadMem(256 bytes @ 0x00082A00) -- CPU_ReadMem(256 bytes @ 0x00082B00)
 -- CPU_ReadMem(256 bytes @ 0x00082C00) -- CPU_ReadMem(256 bytes @ 0x00082D00) -- CPU_ReadMem(256 bytes @ 0x00082E00) -- CPU_ReadMem(256 bytes @ 0x00082F00) -- CPU_ReadMem(256 bytes @ 0x00083000) -- CPU_ReadMem(256 bytes @ 0x00083100) -- CPU_ReadMem(256 bytes @ 0x00083200) -- CPU_ReadMem(256 bytes @ 0x00083300) -- CPU_ReadMem(256 bytes @ 0x00083400) -- CPU_ReadMem(256 bytes @ 0x00083500) -- CPU_ReadMem(256 bytes @ 0x00083600) -- CPU_ReadMem(256 bytes @ 0x00083700) -- CPU_ReadMem(256 bytes @ 0x00083800)
 -- CPU_ReadMem(256 bytes @ 0x00083900) -- CPU_ReadMem(256 bytes @ 0x00083A00) -- CPU_ReadMem(256 bytes @ 0x00083B00) -- CPU_ReadMem(256 bytes @ 0x00083C00) -- CPU_ReadMem(256 bytes @ 0x00083D00) -- CPU_ReadMem(256 bytes @ 0x00083E00) -- CPU_ReadMem(256 bytes @ 0x00083F00) -- CPU_ReadMem(256 bytes @ 0x00084000) -- CPU_ReadMem(256 bytes @ 0x00084100) -- CPU_ReadMem(256 bytes @ 0x00084200) -- CPU_ReadMem(256 bytes @ 0x00084300) -- CPU_ReadMem(256 bytes @ 0x00084400) -- CPU_ReadMem(256 bytes @ 0x00084500)
 -- CPU_ReadMem(256 bytes @ 0x00084600) -- CPU_ReadMem(256 bytes @ 0x00084700) -- CPU_ReadMem(256 bytes @ 0x00084800) -- CPU_ReadMem(256 bytes @ 0x00084900) -- CPU_ReadMem(256 bytes @ 0x00084A00) -- CPU_ReadMem(256 bytes @ 0x00084B00) -- CPU_ReadMem(256 bytes @ 0x00084C00) -- CPU_ReadMem(256 bytes @ 0x00084D00) -- CPU_ReadMem(256 bytes @ 0x00084E00) -- CPU_ReadMem(256 bytes @ 0x00084F00) -- CPU_ReadMem(256 bytes @ 0x00085000) -- CPU_ReadMem(256 bytes @ 0x00085100) -- CPU_ReadMem(256 bytes @ 0x00085200)
 -- CPU_ReadMem(256 bytes @ 0x00085300) -- CPU_ReadMem(256 bytes @ 0x00085400) -- CPU_ReadMem(256 bytes @ 0x00085500) -- CPU_ReadMem(256 bytes @ 0x00085600) -- CPU_ReadMem(256 bytes @ 0x00085700) -- CPU_ReadMem(256 bytes @ 0x00085800) -- CPU_ReadMem(256 bytes @ 0x00085900) -- CPU_ReadMem(256 bytes @ 0x00085A00) -- CPU_ReadMem(256 bytes @ 0x00085B00) -- CPU_ReadMem(256 bytes @ 0x00085C00) -- CPU_ReadMem(256 bytes @ 0x00085D00) -- CPU_ReadMem(256 bytes @ 0x00085E00) -- CPU_ReadMem(256 bytes @ 0x00085F00)
 -- CPU_ReadMem(256 bytes @ 0x00086000) -- CPU_ReadMem(256 bytes @ 0x00086100) -- CPU_ReadMem(256 bytes @ 0x00086200) -- CPU_ReadMem(256 bytes @ 0x00086300) -- CPU_ReadMem(256 bytes @ 0x00086400) -- CPU_ReadMem(256 bytes @ 0x00086500) -- CPU_ReadMem(256 bytes @ 0x00086600) -- CPU_ReadMem(256 bytes @ 0x00086700) -- CPU_ReadMem(256 bytes @ 0x00086800) -- CPU_ReadMem(256 bytes @ 0x00086900) -- CPU_ReadMem(256 bytes @ 0x00086A00) -- CPU_ReadMem(256 bytes @ 0x00086B00) -- CPU_ReadMem(256 bytes @ 0x00086C00)
 -- CPU_ReadMem(256 bytes @ 0x00086D00) -- CPU_ReadMem(256 bytes @ 0x00086E00) -- CPU_ReadMem(256 bytes @ 0x00086F00) -- CPU_ReadMem(256 bytes @ 0x00087000) -- CPU_ReadMem(256 bytes @ 0x00087100) -- CPU_ReadMem(256 bytes @ 0x00087200) -- CPU_ReadMem(256 bytes @ 0x00087300) -- CPU_ReadMem(256 bytes @ 0x00087400) -- CPU_ReadMem(256 bytes @ 0x00087500) -- CPU_ReadMem(256 bytes @ 0x00087600) -- CPU_ReadMem(256 bytes @ 0x00087700) -- CPU_ReadMem(256 bytes @ 0x00087800) -- All CRCs match
 -- End of comparing flash -- Start of flash programming -- End of flash programming -- Flash programming performed for 0 ranges (0 bytes) -- Flash programming was not necessary -- Start of verifying flash -- End of verifying flash -- Start of restoring
                JLINK_GetDeviceFamily()  returns 3 (0001ms, 0151ms total)
               -- Restore RAMCode
                JLINK_WriteReg(XPSR, 0x01000000)  returns 0x00 (0000ms, 0151ms total)
                JLINK_WriteReg(R13, 0x20000418)  returns 0x00 (0001ms, 0152ms total)
                JLINK_WriteReg(R15, 0x2000000E)  returns 0x00 (0000ms, 0152ms total)
                JLINK_GoIntDis() (0007ms, 0159ms total)
                JLINK_IsHalted()  returns TRUE (0006ms, 0165ms total)
                JLINK_ReadReg(R15)  returns 0x20000000 (0000ms, 0166ms total)
               -- Restore content of target memory
                JLINK_WA_Restore() -- CPU_WriteMem(9272 bytes @ 0x20000000)  returns 0x00 (0038ms, 0204ms total)
               -- Restore target -- Restore memory -- Restore content of registers
                JLINK_WriteReg(XPSR, 0x01000000)  returns 0x00 (0000ms, 0204ms total)
                JLINK_WriteReg(CFBP, 0x00000000)  returns 0x00 (0000ms, 0205ms total)
                JLINK_WriteReg(R0, 0x400E1A00)  returns 0x00 (0000ms, 0205ms total)
                JLINK_WriteReg(R1, 0x00000000)  returns 0x00 (0000ms, 0205ms total)
                JLINK_WriteReg(R2, 0xA5000004)  returns 0x00 (0000ms, 0206ms total)
                JLINK_WriteReg(R3, 0x400E1200)  returns 0x00 (0000ms, 0206ms total)
                JLINK_WriteReg(R4, 0x00081599)  returns 0x00 (0000ms, 0206ms total)
                JLINK_WriteReg(R5, 0x000B1009)  returns 0x00 (0001ms, 0207ms total)
                JLINK_WriteReg(R6, 0x000801E1)  returns 0x00 (0000ms, 0207ms total)
                JLINK_WriteReg(R7, 0x30841001)  returns 0x00 (0000ms, 0207ms total)
                JLINK_WriteReg(R8, 0x808194C2)  returns 0x00 (0001ms, 0208ms total)
                JLINK_WriteReg(R9, 0xA3225108)  returns 0x00 (0000ms, 0208ms total)
                JLINK_WriteReg(R10, 0xD0B8D021)  returns 0x00 (0001ms, 0209ms total)
                JLINK_WriteReg(R11, 0xD8C26C39)  returns 0x00 (0000ms, 0209ms total)
                JLINK_WriteReg(R12, 0x0B81690F)  returns 0x00 (0000ms, 0209ms total)
                JLINK_WriteReg(R14, 0xFFFFFFFF)  returns 0x00 (0001ms, 0210ms total)
                JLINK_WriteReg(R15, 0x0008117C)  returns 0x00 (0000ms, 0210ms total)
                JLINK_WriteReg(MSP, 0x20073268)  returns 0x00 (0000ms, 0210ms total)
                JLINK_WriteReg(PSP, 0x2C070024)  returns 0x00 (0001ms, 0211ms total)
               -- End of restoring -- Total time needed: 0.720s (Prepare: 0.151s, Compare: 0.508s, Program: 0.000s, Verify: 0.000s, Restore: 0.060s)  returns 0x00 (0727ms, 2499ms total)
T09DC 003:256 JLINK_JTAG_GetDeviceID(DeviceIndex = 0)  returns 0x4BA00477 (0001ms, 2500ms total)
T09DC 003:257 JLINK_ReadMem (0x400E0940, 0x0004 Bytes, ...) -- CPU_ReadMem(4 bytes @ 0x400E0940) -- Data:  60 0A 5E 28  returns 0x00 (0004ms, 2504ms total)
T09DC 003:287 JLINK_ReadReg(R15)  returns 0x0008117C (0001ms, 2505ms total)
T09DC 003:288 JLINK_IsHalted()  returns TRUE (0000ms, 2505ms total)
T01E4 003:330 JLINK_SetResetType(JLINKARM_RESET_TYPE_NORMAL)  returns JLINKARM_RESET_TYPE_NORMAL (0002ms, 2507ms total)
T01E4 003:332 JLINK_Reset() -- CPU_ReadMem(16 bytes @ 0x20000000) -- CPU_WriteMem(16 bytes @ 0x20000000) -- CPU_ReadMem(4 bytes @ 0xE000EDFC) -- CPU_WriteMem(4 bytes @ 0xE000EDFC) -- CPU_WriteMem(4 bytes @ 0xE000ED0C) -- CPU_ReadMem(4 bytes @ 0xE000EDF0) -- CPU_ReadMem(4 bytes @ 0xE000EDF0) -- CPU_WriteMem(4 bytes @ 0xE000EDFC) -- CPU_WriteMem(16 bytes @ 0x20000000) -- CPU_WriteMem(4 bytes @ 0xE0002000) (0062ms, 2569ms total)
T01E4 003:394 JLINK_ReadReg(R15)  returns 0x0008117C (0004ms, 2573ms total)
T01E4 003:398 JLINK_IsHalted()  returns TRUE (0000ms, 2573ms total)
T09DC 003:411 JLINK_ReadReg(R0)  returns 0x400E1A00 (0000ms, 2573ms total)
T09DC 003:411 JLINK_ReadReg(R1)  returns 0x00000000 (0001ms, 2574ms total)
T09DC 003:412 JLINK_ReadReg(R2)  returns 0xA5000004 (0000ms, 2574ms total)
T09DC 003:412 JLINK_ReadReg(R3)  returns 0x400E1200 (0001ms, 2575ms total)
T09DC 003:413 JLINK_ReadReg(R4)  returns 0x00081599 (0000ms, 2575ms total)
T09DC 003:413 JLINK_ReadReg(R5)  returns 0x000B1009 (0000ms, 2575ms total)
T09DC 003:413 JLINK_ReadReg(R6)  returns 0x000801E1 (0001ms, 2576ms total)
T09DC 003:414 JLINK_ReadReg(R7)  returns 0x30841001 (0000ms, 2576ms total)
T09DC 003:414 JLINK_ReadReg(R8)  returns 0x808194C2 (0001ms, 2577ms total)
T09DC 003:415 JLINK_ReadReg(R9)  returns 0xA3225108 (0000ms, 2577ms total)
T09DC 003:415 JLINK_ReadReg(R10)  returns 0xD0B8D021 (0001ms, 2578ms total)
T09DC 003:416 JLINK_ReadReg(R11)  returns 0xD8C26C39 (0000ms, 2578ms total)
T09DC 003:416 JLINK_ReadReg(R12)  returns 0x0B81690F (0000ms, 2578ms total)
T09DC 003:416 JLINK_ReadReg(R13)  returns 0x20073268 (0001ms, 2579ms total)
T09DC 003:417 JLINK_ReadReg(R13)  returns 0x20073268 (0000ms, 2579ms total)
T09DC 003:417 JLINK_ReadReg(R14)  returns 0xFFFFFFFF (0001ms, 2580ms total)
T09DC 003:418 JLINK_ReadReg(R15)  returns 0x0008117C (0000ms, 2580ms total)
T09DC 003:418 JLINK_ReadReg(R15)  returns 0x0008117C (0000ms, 2580ms total)
T09DC 003:418 JLINK_ReadReg(APSR)  returns 0x00000000 (0001ms, 2581ms total)
T09DC 003:419 JLINK_ReadReg(EPSR)  returns 0x01000000 (0000ms, 2581ms total)
T09DC 003:455 JLINK_FindBP(Addr = 0x000812E4)  returns 0x00000000 (0000ms, 2581ms total)
T09DC 003:456 JLINK_SetBPEx(Addr = 0x000812E4, Type = 0xFFFFFFF2)  returns 0x00000001 (0000ms, 2581ms total)
T09DC 003:488 JLINK_FindBP(Addr = 0x0008199A)  returns 0x00000000 (0001ms, 2582ms total)
T09DC 003:489 JLINK_SetBPEx(Addr = 0x0008199A, Type = 0xFFFFFFF2)  returns 0x00000002 (0000ms, 2582ms total)
T09DC 003:489 JLINK_FindBP(Addr = 0x000819A0)  returns 0x00000000 (0001ms, 2583ms total)
T09DC 003:490 JLINK_SetBPEx(Addr = 0x000819A0, Type = 0xFFFFFFF2)  returns 0x00000003 (0000ms, 2583ms total)
T01E4 003:541 JLINK_FindBP(Addr = 0x000812D8)  returns 0x00000000 (0001ms, 2584ms total)
T01E4 003:542 JLINK_SetBPEx(Addr = 0x000812D8, Type = 0xFFFFFFF2)  returns 0x00000004 (0001ms, 2585ms total)
T01E4 003:543 JLINK_GoEx(MaxEmulInsts = 100, Flags = 0x01) -- CPU_WriteMem(4 bytes @ 0xE0002008) -- CPU_WriteMem(4 bytes @ 0xE000200C) -- CPU_WriteMem(4 bytes @ 0xE0002010) -- CPU_WriteMem(4 bytes @ 0xE0002014) -- CPU_WriteMem(4 bytes @ 0xE0002018) -- CPU_WriteMem(4 bytes @ 0xE000201C) (0020ms, 2605ms total)
T0C38 003:564 JLINK_IsHalted()  returns TRUE (0008ms, 2614ms total)
T0C38 003:572 JLINK_GetMOEs(...) -- CPU_ReadMem(4 bytes @ 0xE000ED30) -- CPU_WriteMem(4 bytes @ 0xE000ED30)  returns 0x01 (0007ms, 2613ms total)
T0C38 003:579 JLINK_ReadReg(R15)  returns 0x000812D8 (0001ms, 2614ms total)
T0C38 003:580 JLINK_ClrBPEx(BPHandle = 0x00000004)  returns 0x00 (0000ms, 2614ms total)
T09DC 003:598 JLINK_ReadReg(R0)  returns 0x200710F0 (0000ms, 2614ms total)
T09DC 003:598 JLINK_ReadReg(R1)  returns 0x400A4000 (0000ms, 2614ms total)
T09DC 003:598 JLINK_ReadReg(R2)  returns 0x200711E8 (0001ms, 2615ms total)
T09DC 003:599 JLINK_ReadReg(R3)  returns 0x000812D9 (0000ms, 2615ms total)
T09DC 003:599 JLINK_ReadReg(R4)  returns 0x20070A78 (0001ms, 2616ms total)
T09DC 003:600 JLINK_ReadReg(R5)  returns 0x000B1009 (0000ms, 2616ms total)
T09DC 003:600 JLINK_ReadReg(R6)  returns 0x000801E1 (0000ms, 2616ms total)
T09DC 003:600 JLINK_ReadReg(R7)  returns 0x30841001 (0001ms, 2617ms total)
T09DC 003:601 JLINK_ReadReg(R8)  returns 0x808194C2 (0000ms, 2617ms total)
T09DC 003:601 JLINK_ReadReg(R9)  returns 0xA3225108 (0001ms, 2618ms total)
T09DC 003:602 JLINK_ReadReg(R10)  returns 0xD0B8D021 (0000ms, 2618ms total)
T09DC 003:602 JLINK_ReadReg(R11)  returns 0xD8C26C39 (0000ms, 2618ms total)
T09DC 003:602 JLINK_ReadReg(R12)  returns 0x0B81690F (0001ms, 2619ms total)
T09DC 003:603 JLINK_ReadReg(R13)  returns 0x20073260 (0000ms, 2619ms total)
T09DC 003:603 JLINK_ReadReg(R13)  returns 0x20073260 (0001ms, 2620ms total)
T09DC 003:604 JLINK_ReadReg(R14)  returns 0x000811D3 (0000ms, 2620ms total)
T09DC 003:604 JLINK_ReadReg(R15)  returns 0x000812D8 (0000ms, 2620ms total)
T09DC 003:605 JLINK_ReadReg(R15)  returns 0x000812D8 (0000ms, 2621ms total)
T09DC 003:605 JLINK_ReadReg(APSR)  returns 0x60000000 (0000ms, 2621ms total)
T09DC 003:605 JLINK_ReadReg(EPSR)  returns 0x01000000 (0001ms, 2622ms total)
T09DC 003:714 JLINK_ReadMem (0x00080000, 0x0230 Bytes, ...) -- Read from flash cache (560 bytes @ 0x00080000) -- Data:  68 32 07 20 7D 11 08 00 A5 01 08 00 A5 01 08 00 ...  returns 0x00 (0001ms, 2623ms total)
T09DC 003:721 JLINK_ReadMem (0x00080000, 0x0230 Bytes, ...) -- Read from flash cache (560 bytes @ 0x00080000) -- Data:  68 32 07 20 7D 11 08 00 A5 01 08 00 A5 01 08 00 ...  returns 0x00 (0000ms, 2623ms total)
T09DC 003:922 JLINK_ReadReg(R0)  returns 0x200710F0 (0000ms, 2623ms total)
T09DC 003:922 JLINK_ReadReg(R1)  returns 0x400A4000 (0000ms, 2623ms total)
T09DC 003:923 JLINK_ReadReg(R2)  returns 0x200711E8 (0000ms, 2624ms total)
T09DC 003:923 JLINK_ReadReg(R3)  returns 0x000812D9 (0000ms, 2624ms total)
T09DC 003:923 JLINK_ReadReg(R4)  returns 0x20070A78 (0001ms, 2625ms total)
T09DC 003:924 JLINK_ReadReg(R5)  returns 0x000B1009 (0000ms, 2625ms total)
T09DC 003:924 JLINK_ReadReg(R6)  returns 0x000801E1 (0001ms, 2626ms total)
T09DC 003:925 JLINK_ReadReg(R7)  returns 0x30841001 (0000ms, 2626ms total)
T09DC 003:925 JLINK_ReadReg(R8)  returns 0x808194C2 (0000ms, 2626ms total)
T09DC 003:925 JLINK_ReadReg(R9)  returns 0xA3225108 (0001ms, 2627ms total)
T09DC 003:926 JLINK_ReadReg(R10)  returns 0xD0B8D021 (0000ms, 2627ms total)
T09DC 003:926 JLINK_ReadReg(R11)  returns 0xD8C26C39 (0001ms, 2628ms total)
T09DC 003:927 JLINK_ReadReg(R12)  returns 0x0B81690F (0000ms, 2628ms total)
T09DC 003:927 JLINK_ReadReg(R13)  returns 0x20073260 (0000ms, 2628ms total)
T09DC 003:928 JLINK_ReadReg(R14)  returns 0x000811D3 (0000ms, 2629ms total)
T09DC 003:928 JLINK_ReadReg(R15)  returns 0x000812D8 (0000ms, 2629ms total)
T09DC 003:928 JLINK_ReadReg(APSR)  returns 0x60000000 (0001ms, 2630ms total)
T09DC 003:929 JLINK_ReadReg(IPSR)  returns 0x00000000 (0000ms, 2630ms total)
T09DC 003:929 JLINK_ReadReg(EPSR)  returns 0x01000000 (0000ms, 2630ms total)
T09DC 003:930 JLINK_ReadReg(PRIMASK)  returns 0x00000000 (0000ms, 2631ms total)
T09DC 003:930 JLINK_ReadReg(FAULTMASK)  returns 0x00000000 (0000ms, 2631ms total)
T09DC 003:930 JLINK_ReadReg(BASEPRI)  returns 0x00000000 (0001ms, 2632ms total)
T09DC 003:931 JLINK_ReadReg(CONTROL)  returns 0x00000000 (0000ms, 2632ms total)
T09DC 003:972 JLINK_ReadReg(R0)  returns 0x200710F0 (0000ms, 2632ms total)
T09DC 003:972 JLINK_ReadReg(R1)  returns 0x400A4000 (0001ms, 2633ms total)
T09DC 003:973 JLINK_ReadReg(R2)  returns 0x200711E8 (0000ms, 2633ms total)
T09DC 003:973 JLINK_ReadReg(R3)  returns 0x000812D9 (0000ms, 2633ms total)
T09DC 003:973 JLINK_ReadReg(R4)  returns 0x20070A78 (0001ms, 2634ms total)
T09DC 003:974 JLINK_ReadReg(R5)  returns 0x000B1009 (0000ms, 2634ms total)
T09DC 003:974 JLINK_ReadReg(R6)  returns 0x000801E1 (0001ms, 2635ms total)
T09DC 003:975 JLINK_ReadReg(R7)  returns 0x30841001 (0000ms, 2635ms total)
T09DC 003:975 JLINK_ReadReg(R8)  returns 0x808194C2 (0000ms, 2635ms total)
T09DC 003:975 JLINK_ReadReg(R9)  returns 0xA3225108 (0001ms, 2636ms total)
T09DC 003:976 JLINK_ReadReg(R10)  returns 0xD0B8D021 (0000ms, 2636ms total)
T09DC 003:976 JLINK_ReadReg(R11)  returns 0xD8C26C39 (0001ms, 2637ms total)
T09DC 003:977 JLINK_ReadReg(R12)  returns 0x0B81690F (0000ms, 2637ms total)
T09DC 003:977 JLINK_ReadReg(R13)  returns 0x20073260 (0000ms, 2637ms total)
T09DC 003:977 JLINK_ReadReg(R14)  returns 0x000811D3 (0001ms, 2638ms total)
T09DC 003:978 JLINK_ReadReg(R15)  returns 0x000812D8 (0000ms, 2638ms total)
T09DC 003:978 JLINK_ReadReg(APSR)  returns 0x60000000 (0001ms, 2639ms total)
T09DC 003:979 JLINK_ReadReg(IPSR)  returns 0x00000000 (0000ms, 2639ms total)
T09DC 003:979 JLINK_ReadReg(EPSR)  returns 0x01000000 (0000ms, 2639ms total)
T09DC 003:980 JLINK_ReadReg(PRIMASK)  returns 0x00000000 (0000ms, 2640ms total)
T09DC 003:980 JLINK_ReadReg(FAULTMASK)  returns 0x00000000 (0000ms, 2640ms total)
T09DC 003:980 JLINK_ReadReg(BASEPRI)  returns 0x00000000 (0001ms, 2641ms total)
T09DC 003:981 JLINK_ReadReg(CONTROL)  returns 0x00000000 (0000ms, 2641ms total)
T09DC 003:991 JLINK_ReadMem (0x00080230, 0x0050 Bytes, ...) -- Read from flash cache (80 bytes @ 0x00080230) -- Data:  04 4B 05 4A 1A 60 00 22 1A 71 5A 71 9A 71 DA 71 ...  returns 0x00 (0000ms, 2641ms total)
T09DC 004:241 JLINK_ReadMem (0x00080000, 0x0280 Bytes, ...) -- Read from flash cache (640 bytes @ 0x00080000) -- Data:  68 32 07 20 7D 11 08 00 A5 01 08 00 A5 01 08 00 ...  returns 0x00 (0000ms, 2642ms total)
T09DC 004:248 JLINK_ReadMem (0x00080000, 0x0280 Bytes, ...) -- Read from flash cache (640 bytes @ 0x00080000) -- Data:  68 32 07 20 7D 11 08 00 A5 01 08 00 A5 01 08 00 ...  returns 0x00 (0000ms, 2642ms total)
T01E4 009:276 JLINK_ReadReg(R15)  returns 0x000812D8 (0003ms, 2645ms total)
T01E4 009:279 JLINK_IsHalted()  returns TRUE (0003ms, 2648ms total)
T01E4 009:282 JLINK_ReadMem (0x000812D8, 0x0004 Bytes, ...) -- Read from flash cache (4 bytes @ 0x000812D8) -- Data:  08 B5 07 4B  returns 0x00 (0001ms, 2646ms total)
T01E4 009:283 JLINK_Step() -- Read from flash cache (2 bytes @ 0x000812D8) -- CPU_WriteMem(8 bytes @ 0x20073258) -- Simulated  returns 0x00 (0003ms, 2649ms total)
T01E4 009:286 JLINK_ReadReg(R15)  returns 0x000812DA (0001ms, 2650ms total)
T01E4 009:287 JLINK_IsHalted()  returns TRUE (0000ms, 2650ms total)
T09DC 009:296 JLINK_ReadReg(R0)  returns 0x200710F0 (0000ms, 2650ms total)
T09DC 009:296 JLINK_ReadReg(R1)  returns 0x400A4000 (0000ms, 2650ms total)
T09DC 009:296 JLINK_ReadReg(R2)  returns 0x200711E8 (0001ms, 2651ms total)
T09DC 009:297 JLINK_ReadReg(R3)  returns 0x000812D9 (0000ms, 2651ms total)
T09DC 009:297 JLINK_ReadReg(R4)  returns 0x20070A78 (0001ms, 2652ms total)
T09DC 009:298 JLINK_ReadReg(R5)  returns 0x000B1009 (0000ms, 2652ms total)
T09DC 009:298 JLINK_ReadReg(R6)  returns 0x000801E1 (0000ms, 2652ms total)
T09DC 009:299 JLINK_ReadReg(R7)  returns 0x30841001 (0000ms, 2653ms total)
T09DC 009:299 JLINK_ReadReg(R8)  returns 0x808194C2 (0000ms, 2653ms total)
T09DC 009:299 JLINK_ReadReg(R9)  returns 0xA3225108 (0001ms, 2654ms total)
T09DC 009:300 JLINK_ReadReg(R10)  returns 0xD0B8D021 (0000ms, 2654ms total)
T09DC 009:300 JLINK_ReadReg(R11)  returns 0xD8C26C39 (0000ms, 2654ms total)
T09DC 009:301 JLINK_ReadReg(R12)  returns 0x0B81690F (0000ms, 2655ms total)
T09DC 009:301 JLINK_ReadReg(R13)  returns 0x20073258 (0000ms, 2655ms total)
T09DC 009:301 JLINK_ReadReg(R13)  returns 0x20073258 (0001ms, 2656ms total)
